

Newly saved data
<<<<<<<<<<<<<<<<<<<<<<<<<<<<<<<<<<<<<<<<<<<<<<<<<<<<<<<<<<<<<<<<<<<<<<<<<<
26/01/2025 20:54:24.620
Tx: 00 03 02 00 00 15 84 6C 

26/01/2025 20:54:24.807
Rx: 01 03 2A 00 AB 00 04 00 5F 00 03 00 42 00 04 00 6B 00 02 00 20 00 03 00 28 00 07 00 0A 00 09 00 0D 00 09 00 1E 00 09 00 0E 00 06 00 0E D1 0A 

26/01/2025 20:54:24.917
Tx: 00 03 02 15 00 15 95 A8 

26/01/2025 20:54:25.213
Rx: 01 03 2A 00 00 00 00 00 00 00 00 00 00 00 00 00 00 00 00 00 00 00 00 00 00 00 00 00 00 00 00 00 00 00 00 00 00 00 00 00 00 00 00 00 00 2E D8 

26/01/2025 20:54:25.341
Tx: 00 03 02 2A 00 15 A5 A4 

26/01/2025 20:54:25.619
Rx: 01 03 2A 00 00 00 00 00 00 00 00 00 00 00 00 00 00 00 00 00 00 00 00 00 00 00 00 00 00 00 00 00 00 00 00 00 00 00 00 00 00 00 00 00 00 2E D8 

26/01/2025 20:54:25.746
Tx: 00 03 02 3F 00 15 B4 60 

26/01/2025 20:54:26.25
Rx: 01 03 2A 00 9E 00 06 00 42 00 02 00 42 00 05 00 6C 00 03 00 21 00 02 00 28 00 04 00 09 00 07 00 0C 00 0C 00 1E 00 0B 00 0D 00 05 00 0E 1D A5 

26/01/2025 20:54:26.169
Tx: 00 03 02 54 00 15 C5 BC 

26/01/2025 20:54:26.448
Rx: 01 03 2A 00 00 00 00 00 00 00 00 00 00 00 00 00 00 00 00 00 00 00 00 00 00 00 00 00 00 00 00 00 00 00 00 00 00 00 00 00 00 00 00 00 00 2E D8 

26/01/2025 20:54:26.558
Tx: 00 03 02 69 00 15 54 70 

26/01/2025 20:54:26.587
Rx: 01 03 2A 00 00 00 00 00 00 00 00 00 00 00 00 00 00 00 00 00 00 00 00 00 00 00 00 00 00 00 00 00 00 00 00 00 00 00 00 00 00 00 00 00 00 2E D8 
